
T1BF4 000:491 SEGGER J-Link V4.40c Log File (0000ms, 0490ms total)
T1BF4 000:491 DLL Compiled: Jan 24 2012 09:30:33 (0000ms, 0490ms total)
T1BF4 000:491 Logging started @ 2013-03-12 11:59 (0000ms, 0490ms total)
T1BF4 000:491 JLINK_SetWarnOutHandler(...) (0000ms, 0490ms total)
T1BF4 000:491 JLINK_OpenEx(...)
Firmware: J-Link ARM V8 compiled Dec  6 2011 18:57:44
Hardware: V8.00
S/N: 20090626
Feature(s): RDI,FlashDL,FlashBP,JFlash,GDBFULL  returns O.K. (0204ms, 0490ms total)
T1BF4 000:695 JLINK_SetErrorOutHandler(...) (0000ms, 0694ms total)
T1BF4 000:695 JLINK_ExecCommand("Device = STM32F051R8", ...)  returns 0x00 (0001ms, 0694ms total)
T1BF4 000:696 JLINK_ExecCommand("ProjectFile = "D:\repos\rt-thread\bsp\stm32f0x\JLinkSettings.ini"", ...)  returns 0x00 (0001ms, 0695ms total)
T1BF4 000:699 JLINK_ExecCommand("DisableConnectionTimeout", ...)  returns 0x00 (0000ms, 0696ms total)
T1BF4 000:699 JLINK_TIF_Select(JLINKARM_TIF_SWD)  returns 0x00 (0000ms, 0696ms total)
T1BF4 000:699 JLINK_SetSpeed(5000) (0000ms, 0696ms total)
T1BF4 000:699 JLINK_GetHardwareVersion()  returns 0x13880 (0000ms, 0696ms total)
T1BF4 000:699 JLINK_GetDLLVersion()  returns 44003 (0000ms, 0696ms total)
T1BF4 000:699 JLINK_GetFirmwareString(...) (0000ms, 0696ms total)
T1BF4 000:704 JLINK_GetDLLVersion()  returns 44003 (0000ms, 0696ms total)
T1BF4 000:704 JLINK_GetCompileDateTime() (0000ms, 0696ms total)
T1BF4 000:707 JLINK_GetFirmwareString(...) (0000ms, 0696ms total)
T1BF4 000:712 JLINK_GetHardwareVersion()  returns 0x13880 (0000ms, 0696ms total)
T1BF4 000:724 JLINK_GetId() >0x108 TIF>Found SWD-DP with ID 0x0BB11477 >0x33 TIF> >0x33 TIF> >0x35 TIF> >0x33 TIF> >0x35 TIF> >0x33 TIF> >0x33 TIF> >0x35 TIF> >0x33 TIF> >0x33 TIF> >0x35 TIF> >0x33 TIF> >0x33 TIF> >0x35 TIF> >0x33 TIF> >0x33 TIF> >0x35 TIF> >0x35 TIF> >0x35 TIF> >0x33 TIF> >0x33 TIF> >0x35 TIF> >0x33 TIF> >0x33 TIF> >0x33 TIF> >0x35 TIF> >0x33 TIF> >0x33 TIF> >0x35 TIF> >0x33 TIF> >0x33 TIF>  FPUnit: 4 code (BP) slots and 0 literal slots >0x35 TIF> >0x33 TIF> >0x33 TIF> >0x35 TIF>
 >0x35 TIF> >0x35 TIF> >0x33 TIF> >0x33 TIF> >0x35 TIF> >0x33 TIF> >0x33 TIF> >0x35 TIF> >0x33 TIF> >0x33 TIF>Found Cortex-M0 r0p0, Little endian. >0x33 TIF>  returns 0x0BB11477 (0043ms, 0696ms total)
T1BF4 000:767 JLINK_GetDebugInfo(0x100) -- Value=0xE00FF003  returns 0x00 (0000ms, 0739ms total)
T1BF4 000:769 JLINK_ReadMem (0xE00FFFF0, 0x0010 Bytes, ...) -- CPU is running -- CPU_ReadMem(16 bytes @ 0xE00FFFF0) -- Data:  0D 00 00 00 10 00 00 00 05 00 00 00 B1 00 00 00  returns 0x00 (0002ms, 0739ms total)
T1BF4 000:771 JLINK_ReadMem (0xE00FFFD0, 0x0020 Bytes, ...) -- CPU is running -- CPU_ReadMem(32 bytes @ 0xE00FFFD0) -- Data:  00 00 00 00 00 00 00 00 00 00 00 00 00 00 00 00 ...  returns 0x00 (0001ms, 0741ms total)
T1BF4 000:772 JLINK_ReadMem (0xE00FF000, 0x0018 Bytes, ...) -- CPU is running -- CPU_ReadMem(24 bytes @ 0xE00FF000) -- Data:  03 F0 F0 FF 03 20 F0 FF 03 30 F0 FF 00 00 00 00 ...  returns 0x00 (0000ms, 0742ms total)
T1BF4 000:772 JLINK_ReadMemU32(0xE000ED00, 0x0001 Items, ...) -- CPU is running -- CPU_ReadMem(4 bytes @ 0xE000ED00) -- Data:  00 C2 0C 41  returns 0x01 (0001ms, 0742ms total)
T1BF4 000:773 JLINK_SetResetType(JLINKARM_RESET_TYPE_NORMAL)  returns JLINKARM_RESET_TYPE_NORMAL (0000ms, 0743ms total)
T1BF4 000:773 JLINK_Reset() >0x108 TIF>Found SWD-DP with ID 0x0BB11477 >0x33 TIF> >0x33 TIF> >0x35 TIF> >0x33 TIF> >0x35 TIF> >0x33 TIF> >0x33 TIF> >0x35 TIF> >0x33 TIF> >0x33 TIF> >0x35 TIF> >0x33 TIF> >0x33 TIF> >0x35 TIF> >0x33 TIF> >0x33 TIF> >0x35 TIF> >0x35 TIF> >0x35 TIF> >0x33 TIF> >0x33 TIF> >0x35 TIF> >0x33 TIF> >0x33 TIF> >0x33 TIF> >0x35 TIF> >0x33 TIF> >0x33 TIF> >0x35 TIF> >0x33 TIF> >0x33 TIF>  FPUnit: 4 code (BP) slots and 0 literal slots >0x35 TIF> >0x33 TIF> >0x33 TIF> >0x35 TIF>
 >0x33 TIF> >0x33 TIF> >0x35 TIF> >0x33 TIF> >0x33 TIF> >0x35 TIF> >0x33 TIF> >0x33 TIF>Found Cortex-M0 r0p0, Little endian. (0056ms, 0743ms total)
T1BF4 000:829 JLINK_Halt()  returns 0x00 (0000ms, 0799ms total)
T1BF4 000:829 JLINK_IsHalted()  returns TRUE (0000ms, 0799ms total)
T1BF4 000:829 JLINK_ReadMemU32(0xE000EDF0, 0x0001 Items, ...) -- CPU_ReadMem(4 bytes @ 0xE000EDF0) -- Data:  03 00 03 00  returns 0x01 (0001ms, 0799ms total)
T1BF4 000:830 JLINK_WriteU32(0xE000EDF0, 0xA05F0003) -- CPU_WriteMem(4 bytes @ 0xE000EDF0)  returns 0x00 (0001ms, 0800ms total)
T1BF4 000:831 JLINK_WriteU32(0xE000EDFC, 0x01000000) -- CPU_WriteMem(4 bytes @ 0xE000EDFC)  returns 0x00 (0001ms, 0801ms total)
T1BF4 000:842 JLINK_GetHWStatus(...)  returns 0x00 (0000ms, 0802ms total)
T1BF4 000:850 JLINK_GetNumBPUnits(Type = 0xFFFFFF00)  returns 0x04 (0000ms, 0802ms total)
T1BF4 000:850 JLINK_GetNumBPUnits(Type = 0xF0)  returns 0x2000 (0000ms, 0802ms total)
T1BF4 000:850 JLINK_GetNumWPUnits()  returns 0x02 (0000ms, 0802ms total)
T1BF4 000:858 JLINK_GetSpeed()  returns 0xFA0 (0000ms, 0802ms total)
T1BF4 000:864 JLINK_ReadMemU32(0xE000E004, 0x0001 Items, ...) -- CPU_ReadMem(4 bytes @ 0xE000E004) -- Data:  00 00 00 00  returns 0x01 (0001ms, 0802ms total)
T1BF4 000:865 JLINK_Halt()  returns 0x00 (0000ms, 0803ms total)
T1BF4 000:865 JLINK_IsHalted()  returns TRUE (0000ms, 0803ms total)
T1BF4 000:867 JLINK_WriteMem(0x20000000, 0x0170 Bytes, ...) -- Data:  00 BE 0A E0 0D 78 2D 06 68 40 08 24 40 00 00 D3 ... -- CPU_WriteMem(368 bytes @ 0x20000000)  returns 0x170 (0005ms, 0803ms total)
T1BF4 000:872 JLINK_WriteReg(R0, 0x08000000)  returns 0x00 (0000ms, 0808ms total)
T1BF4 000:872 JLINK_WriteReg(R1, 0x007A1200)  returns 0x00 (0000ms, 0808ms total)
T1BF4 000:872 JLINK_WriteReg(R2, 0x00000001)  returns 0x00 (0000ms, 0808ms total)
T1BF4 000:872 JLINK_WriteReg(R3, 0x00000000)  returns 0x00 (0000ms, 0808ms total)
T1BF4 000:872 JLINK_WriteReg(R4, 0x00000000)  returns 0x00 (0000ms, 0808ms total)
T1BF4 000:872 JLINK_WriteReg(R5, 0x00000000)  returns 0x00 (0000ms, 0808ms total)
T1BF4 000:872 JLINK_WriteReg(R6, 0x00000000)  returns 0x00 (0000ms, 0808ms total)
T1BF4 000:872 JLINK_WriteReg(R7, 0x00000000)  returns 0x00 (0000ms, 0808ms total)
T1BF4 000:872 JLINK_WriteReg(R8, 0x00000000)  returns 0x00 (0000ms, 0808ms total)
T1BF4 000:872 JLINK_WriteReg(R9, 0x2000016C)  returns 0x00 (0000ms, 0808ms total)
T1BF4 000:872 JLINK_WriteReg(R10, 0x00000000)  returns 0x00 (0000ms, 0808ms total)
T1BF4 000:872 JLINK_WriteReg(R11, 0x00000000)  returns 0x00 (0000ms, 0808ms total)
T1BF4 000:872 JLINK_WriteReg(R12, 0x00000000)  returns 0x00 (0000ms, 0808ms total)
T1BF4 000:872 JLINK_WriteReg(R13, 0x20000800)  returns 0x00 (0000ms, 0808ms total)
T1BF4 000:872 JLINK_WriteReg(R14, 0x20000001)  returns 0x00 (0000ms, 0808ms total)
T1BF4 000:872 JLINK_WriteReg(R15, 0x20000038)  returns 0x00 (0000ms, 0808ms total)
T1BF4 000:872 JLINK_WriteReg(XPSR, 0x01000000)  returns 0x00 (0000ms, 0808ms total)
T1BF4 000:872 JLINK_WriteReg(MSP, 0x20000800)  returns 0x00 (0000ms, 0808ms total)
T1BF4 000:872 JLINK_WriteReg(PSP, 0x20000800)  returns 0x00 (0000ms, 0808ms total)
T1BF4 000:872 JLINK_WriteReg(CFBP, 0x00000000)  returns 0x00 (0000ms, 0808ms total)
T1BF4 000:872 JLINK_SetBPEx(Addr = 0x20000000, Type = 0xFFFFFFF2) -- CPU_ReadMem(4 bytes @ 0x20000000) -- CPU_WriteMem(4 bytes @ 0x20000000) -- CPU_ReadMem(4 bytes @ 0x20000000) -- CPU_WriteMem(4 bytes @ 0x20000000) -- CPU_ReadMem(2 bytes @ 0x20000000)  returns 0x00000001 (0004ms, 0808ms total)
T1BF4 000:876 JLINK_Go() -- CPU_WriteMem(2 bytes @ 0x20000000) -- CPU_WriteMem(4 bytes @ 0xE0002008) -- CPU_WriteMem(4 bytes @ 0xE000200C) -- CPU_WriteMem(4 bytes @ 0xE0002010) -- CPU_WriteMem(4 bytes @ 0xE0002014) (0009ms, 0812ms total)
T1BF4 000:885 JLINK_IsHalted() -- CPU_ReadMem(2 bytes @ 0x20000000)  returns TRUE (0005ms, 0821ms total)
T1BF4 000:890 JLINK_ReadReg(R15)  returns 0x20000000 (0000ms, 0821ms total)
T1BF4 000:890 JLINK_ClrBPEx(BPHandle = 0x00000001)  returns 0x00 (0000ms, 0821ms total)
T1BF4 000:890 JLINK_ReadReg(R0)  returns 0x00000000 (0000ms, 0821ms total)
T1BF4 000:890 JLINK_WriteReg(R0, 0x08000000)  returns 0x00 (0000ms, 0821ms total)
T1BF4 000:890 JLINK_WriteReg(R1, 0x00000400)  returns 0x00 (0000ms, 0821ms total)
T1BF4 000:890 JLINK_WriteReg(R2, 0x000000FF)  returns 0x00 (0000ms, 0821ms total)
T1BF4 000:890 JLINK_WriteReg(R3, 0x00000000)  returns 0x00 (0000ms, 0821ms total)
T1BF4 000:890 JLINK_WriteReg(R4, 0x00000000)  returns 0x00 (0000ms, 0821ms total)
T1BF4 000:890 JLINK_WriteReg(R5, 0x00000000)  returns 0x00 (0000ms, 0821ms total)
T1BF4 000:890 JLINK_WriteReg(R6, 0x00000000)  returns 0x00 (0000ms, 0821ms total)
T1BF4 000:890 JLINK_WriteReg(R7, 0x00000000)  returns 0x00 (0000ms, 0821ms total)
T1BF4 000:890 JLINK_WriteReg(R8, 0x00000000)  returns 0x00 (0000ms, 0821ms total)
T1BF4 000:890 JLINK_WriteReg(R9, 0x2000016C)  returns 0x00 (0000ms, 0821ms total)
T1BF4 000:890 JLINK_WriteReg(R10, 0x00000000)  returns 0x00 (0000ms, 0821ms total)
T1BF4 000:890 JLINK_WriteReg(R11, 0x00000000)  returns 0x00 (0000ms, 0821ms total)
T1BF4 000:890 JLINK_WriteReg(R12, 0x00000000)  returns 0x00 (0000ms, 0821ms total)
T1BF4 000:890 JLINK_WriteReg(R13, 0x20000800)  returns 0x00 (0000ms, 0821ms total)
T1BF4 000:890 JLINK_WriteReg(R14, 0x20000001)  returns 0x00 (0000ms, 0821ms total)
T1BF4 000:890 JLINK_WriteReg(R15, 0x20000020)  returns 0x00 (0000ms, 0821ms total)
T1BF4 000:890 JLINK_WriteReg(XPSR, 0x01000000)  returns 0x00 (0000ms, 0821ms total)
T1BF4 000:890 JLINK_WriteReg(MSP, 0x20000800)  returns 0x00 (0000ms, 0821ms total)
T1BF4 000:890 JLINK_WriteReg(PSP, 0x20000800)  returns 0x00 (0000ms, 0821ms total)
T1BF4 000:890 JLINK_WriteReg(CFBP, 0x00000000)  returns 0x00 (0000ms, 0821ms total)
T1BF4 000:890 JLINK_SetBPEx(Addr = 0x20000000, Type = 0xFFFFFFF2)  returns 0x00000002 (0000ms, 0821ms total)
T1BF4 000:890 JLINK_Go() -- CPU_WriteMem(4 bytes @ 0xE0002008) -- CPU_WriteMem(4 bytes @ 0xE000200C) -- CPU_WriteMem(4 bytes @ 0xE0002010) -- CPU_WriteMem(4 bytes @ 0xE0002014) (0007ms, 0821ms total)
T1BF4 000:897 JLINK_IsHalted() -- CPU_ReadMem(2 bytes @ 0x20000000)  returns TRUE (0004ms, 0828ms total)
T1BF4 000:901 JLINK_ReadReg(R15)  returns 0x20000000 (0000ms, 0828ms total)
T1BF4 000:901 JLINK_ClrBPEx(BPHandle = 0x00000002)  returns 0x00 (0000ms, 0828ms total)
T1BF4 000:901 JLINK_ReadReg(R0)  returns 0x00000001 (0000ms, 0828ms total)
T1BF4 000:901 JLINK_WriteReg(R0, 0x08000000)  returns 0x00 (0000ms, 0828ms total)
T1BF4 000:901 JLINK_WriteReg(R1, 0x00000400)  returns 0x00 (0000ms, 0828ms total)
T1BF4 000:901 JLINK_WriteReg(R2, 0x000000FF)  returns 0x00 (0000ms, 0828ms total)
T1BF4 000:901 JLINK_WriteReg(R3, 0x00000000)  returns 0x00 (0000ms, 0828ms total)
T1BF4 000:901 JLINK_WriteReg(R4, 0x00000000)  returns 0x00 (0000ms, 0828ms total)
T1BF4 000:901 JLINK_WriteReg(R5, 0x00000000)  returns 0x00 (0000ms, 0828ms total)
T1BF4 000:901 JLINK_WriteReg(R6, 0x00000000)  returns 0x00 (0000ms, 0828ms total)
T1BF4 000:901 JLINK_WriteReg(R7, 0x00000000)  returns 0x00 (0000ms, 0828ms total)
T1BF4 000:901 JLINK_WriteReg(R8, 0x00000000)  returns 0x00 (0000ms, 0828ms total)
T1BF4 000:901 JLINK_WriteReg(R9, 0x2000016C)  returns 0x00 (0000ms, 0828ms total)
T1BF4 000:901 JLINK_WriteReg(R10, 0x00000000)  returns 0x00 (0000ms, 0828ms total)
T1BF4 000:901 JLINK_WriteReg(R11, 0x00000000)  returns 0x00 (0001ms, 0828ms total)
T1BF4 000:902 JLINK_WriteReg(R12, 0x00000000)  returns 0x00 (0000ms, 0829ms total)
T1BF4 000:902 JLINK_WriteReg(R13, 0x20000800)  returns 0x00 (0000ms, 0829ms total)
T1BF4 000:902 JLINK_WriteReg(R14, 0x20000001)  returns 0x00 (0000ms, 0829ms total)
T1BF4 000:902 JLINK_WriteReg(R15, 0x200000B8)  returns 0x00 (0000ms, 0829ms total)
T1BF4 000:902 JLINK_WriteReg(XPSR, 0x01000000)  returns 0x00 (0000ms, 0829ms total)
T1BF4 000:902 JLINK_WriteReg(MSP, 0x20000800)  returns 0x00 (0000ms, 0829ms total)
T1BF4 000:902 JLINK_WriteReg(PSP, 0x20000800)  returns 0x00 (0000ms, 0829ms total)
T1BF4 000:902 JLINK_WriteReg(CFBP, 0x00000000)  returns 0x00 (0000ms, 0829ms total)
T1BF4 000:902 JLINK_SetBPEx(Addr = 0x20000000, Type = 0xFFFFFFF2)  returns 0x00000003 (0000ms, 0829ms total)
T1BF4 000:902 JLINK_Go() -- CPU_WriteMem(4 bytes @ 0xE0002008) -- CPU_WriteMem(4 bytes @ 0xE000200C) -- CPU_WriteMem(4 bytes @ 0xE0002010) -- CPU_WriteMem(4 bytes @ 0xE0002014) (0006ms, 0829ms total)
T1BF4 000:908 JLINK_IsHalted()  returns FALSE (0001ms, 0835ms total)
T1BF4 000:959 JLINK_IsHalted() -- CPU_ReadMem(2 bytes @ 0x20000000)  returns TRUE (0005ms, 0835ms total)
T1BF4 000:964 JLINK_ReadReg(R15)  returns 0x20000000 (0000ms, 0835ms total)
T1BF4 000:964 JLINK_ClrBPEx(BPHandle = 0x00000003)  returns 0x00 (0000ms, 0835ms total)
T1BF4 000:964 JLINK_ReadReg(R0)  returns 0x00000000 (0000ms, 0835ms total)
T1BF4 000:965 JLINK_WriteReg(R0, 0x08000400)  returns 0x00 (0000ms, 0835ms total)
T1BF4 000:965 JLINK_WriteReg(R1, 0x00000400)  returns 0x00 (0000ms, 0835ms total)
T1BF4 000:965 JLINK_WriteReg(R2, 0x000000FF)  returns 0x00 (0000ms, 0835ms total)
T1BF4 000:965 JLINK_WriteReg(R3, 0x00000000)  returns 0x00 (0000ms, 0835ms total)
T1BF4 000:965 JLINK_WriteReg(R4, 0x00000000)  returns 0x00 (0000ms, 0835ms total)
T1BF4 000:965 JLINK_WriteReg(R5, 0x00000000)  returns 0x00 (0000ms, 0835ms total)
T1BF4 000:965 JLINK_WriteReg(R6, 0x00000000)  returns 0x00 (0000ms, 0835ms total)
T1BF4 000:965 JLINK_WriteReg(R7, 0x00000000)  returns 0x00 (0000ms, 0835ms total)
T1BF4 000:965 JLINK_WriteReg(R8, 0x00000000)  returns 0x00 (0000ms, 0835ms total)
T1BF4 000:965 JLINK_WriteReg(R9, 0x2000016C)  returns 0x00 (0000ms, 0835ms total)
T1BF4 000:965 JLINK_WriteReg(R10, 0x00000000)  returns 0x00 (0000ms, 0835ms total)
T1BF4 000:965 JLINK_WriteReg(R11, 0x00000000)  returns 0x00 (0000ms, 0835ms total)
T1BF4 000:965 JLINK_WriteReg(R12, 0x00000000)  returns 0x00 (0000ms, 0835ms total)
T1BF4 000:965 JLINK_WriteReg(R13, 0x20000800)  returns 0x00 (0000ms, 0835ms total)
T1BF4 000:965 JLINK_WriteReg(R14, 0x20000001)  returns 0x00 (0000ms, 0835ms total)
T1BF4 000:965 JLINK_WriteReg(R15, 0x20000020)  returns 0x00 (0000ms, 0835ms total)
T1BF4 000:965 JLINK_WriteReg(XPSR, 0x01000000)  returns 0x00 (0000ms, 0835ms total)
T1BF4 000:965 JLINK_WriteReg(MSP, 0x20000800)  returns 0x00 (0000ms, 0835ms total)
T1BF4 000:965 JLINK_WriteReg(PSP, 0x20000800)  returns 0x00 (0000ms, 0835ms total)
T1BF4 000:965 JLINK_WriteReg(CFBP, 0x00000000)  returns 0x00 (0000ms, 0835ms total)
T1BF4 000:965 JLINK_SetBPEx(Addr = 0x20000000, Type = 0xFFFFFFF2)  returns 0x00000004 (0000ms, 0835ms total)
T1BF4 000:965 JLINK_Go() -- CPU_WriteMem(4 bytes @ 0xE0002008) -- CPU_WriteMem(4 bytes @ 0xE000200C) -- CPU_WriteMem(4 bytes @ 0xE0002010) -- CPU_WriteMem(4 bytes @ 0xE0002014) (0006ms, 0835ms total)
T1BF4 000:971 JLINK_IsHalted() -- CPU_ReadMem(2 bytes @ 0x20000000)  returns TRUE (0005ms, 0841ms total)
T1BF4 000:976 JLINK_ReadReg(R15)  returns 0x20000000 (0000ms, 0841ms total)
T1BF4 000:976 JLINK_ClrBPEx(BPHandle = 0x00000004)  returns 0x00 (0000ms, 0841ms total)
T1BF4 000:976 JLINK_ReadReg(R0)  returns 0x00000001 (0000ms, 0841ms total)
T1BF4 000:976 JLINK_WriteReg(R0, 0x08000400)  returns 0x00 (0000ms, 0841ms total)
T1BF4 000:976 JLINK_WriteReg(R1, 0x00000400)  returns 0x00 (0000ms, 0841ms total)
T1BF4 000:976 JLINK_WriteReg(R2, 0x000000FF)  returns 0x00 (0000ms, 0841ms total)
T1BF4 000:976 JLINK_WriteReg(R3, 0x00000000)  returns 0x00 (0000ms, 0841ms total)
T1BF4 000:976 JLINK_WriteReg(R4, 0x00000000)  returns 0x00 (0000ms, 0841ms total)
T1BF4 000:976 JLINK_WriteReg(R5, 0x00000000)  returns 0x00 (0000ms, 0841ms total)
T1BF4 000:976 JLINK_WriteReg(R6, 0x00000000)  returns 0x00 (0000ms, 0841ms total)
T1BF4 000:976 JLINK_WriteReg(R7, 0x00000000)  returns 0x00 (0000ms, 0841ms total)
T1BF4 000:976 JLINK_WriteReg(R8, 0x00000000)  returns 0x00 (0000ms, 0841ms total)
T1BF4 000:976 JLINK_WriteReg(R9, 0x2000016C)  returns 0x00 (0000ms, 0841ms total)
T1BF4 000:976 JLINK_WriteReg(R10, 0x00000000)  returns 0x00 (0000ms, 0841ms total)
T1BF4 000:976 JLINK_WriteReg(R11, 0x00000000)  returns 0x00 (0000ms, 0841ms total)
T1BF4 000:976 JLINK_WriteReg(R12, 0x00000000)  returns 0x00 (0000ms, 0841ms total)
T1BF4 000:976 JLINK_WriteReg(R13, 0x20000800)  returns 0x00 (0000ms, 0841ms total)
T1BF4 000:976 JLINK_WriteReg(R14, 0x20000001)  returns 0x00 (0000ms, 0841ms total)
T1BF4 000:976 JLINK_WriteReg(R15, 0x200000B8)  returns 0x00 (0000ms, 0841ms total)
T1BF4 000:976 JLINK_WriteReg(XPSR, 0x01000000)  returns 0x00 (0000ms, 0841ms total)
T1BF4 000:976 JLINK_WriteReg(MSP, 0x20000800)  returns 0x00 (0000ms, 0841ms total)
T1BF4 000:976 JLINK_WriteReg(PSP, 0x20000800)  returns 0x00 (0001ms, 0841ms total)
T1BF4 000:977 JLINK_WriteReg(CFBP, 0x00000000)  returns 0x00 (0000ms, 0842ms total)
T1BF4 000:977 JLINK_SetBPEx(Addr = 0x20000000, Type = 0xFFFFFFF2)  returns 0x00000005 (0000ms, 0842ms total)
T1BF4 000:977 JLINK_Go() -- CPU_WriteMem(4 bytes @ 0xE0002008) -- CPU_WriteMem(4 bytes @ 0xE000200C) -- CPU_WriteMem(4 bytes @ 0xE0002010) -- CPU_WriteMem(4 bytes @ 0xE0002014) (0005ms, 0842ms total)
T1BF4 000:982 JLINK_IsHalted()  returns FALSE (0001ms, 0847ms total)
T1BF4 001:034 JLINK_IsHalted() -- CPU_ReadMem(2 bytes @ 0x20000000)  returns TRUE (0004ms, 0847ms total)
T1BF4 001:038 JLINK_ReadReg(R15)  returns 0x20000000 (0000ms, 0847ms total)
T1BF4 001:038 JLINK_ClrBPEx(BPHandle = 0x00000005)  returns 0x00 (0000ms, 0847ms total)
T1BF4 001:038 JLINK_ReadReg(R0)  returns 0x00000000 (0000ms, 0847ms total)
T1BF4 001:039 JLINK_WriteReg(R0, 0x08000800)  returns 0x00 (0000ms, 0847ms total)
T1BF4 001:039 JLINK_WriteReg(R1, 0x00000400)  returns 0x00 (0000ms, 0847ms total)
T1BF4 001:039 JLINK_WriteReg(R2, 0x000000FF)  returns 0x00 (0000ms, 0847ms total)
T1BF4 001:039 JLINK_WriteReg(R3, 0x00000000)  returns 0x00 (0000ms, 0847ms total)
T1BF4 001:039 JLINK_WriteReg(R4, 0x00000000)  returns 0x00 (0000ms, 0847ms total)
T1BF4 001:039 JLINK_WriteReg(R5, 0x00000000)  returns 0x00 (0000ms, 0847ms total)
T1BF4 001:039 JLINK_WriteReg(R6, 0x00000000)  returns 0x00 (0000ms, 0847ms total)
T1BF4 001:039 JLINK_WriteReg(R7, 0x00000000)  returns 0x00 (0000ms, 0847ms total)
T1BF4 001:039 JLINK_WriteReg(R8, 0x00000000)  returns 0x00 (0000ms, 0847ms total)
T1BF4 001:039 JLINK_WriteReg(R9, 0x2000016C)  returns 0x00 (0000ms, 0847ms total)
T1BF4 001:039 JLINK_WriteReg(R10, 0x00000000)  returns 0x00 (0000ms, 0847ms total)
T1BF4 001:039 JLINK_WriteReg(R11, 0x00000000)  returns 0x00 (0000ms, 0847ms total)
T1BF4 001:039 JLINK_WriteReg(R12, 0x00000000)  returns 0x00 (0000ms, 0847ms total)
T1BF4 001:039 JLINK_WriteReg(R13, 0x20000800)  returns 0x00 (0000ms, 0847ms total)
T1BF4 001:039 JLINK_WriteReg(R14, 0x20000001)  returns 0x00 (0000ms, 0847ms total)
T1BF4 001:039 JLINK_WriteReg(R15, 0x20000020)  returns 0x00 (0000ms, 0847ms total)
T1BF4 001:039 JLINK_WriteReg(XPSR, 0x01000000)  returns 0x00 (0000ms, 0847ms total)
T1BF4 001:039 JLINK_WriteReg(MSP, 0x20000800)  returns 0x00 (0000ms, 0847ms total)
T1BF4 001:039 JLINK_WriteReg(PSP, 0x20000800)  returns 0x00 (0000ms, 0847ms total)
T1BF4 001:039 JLINK_WriteReg(CFBP, 0x00000000)  returns 0x00 (0000ms, 0847ms total)
T1BF4 001:039 JLINK_SetBPEx(Addr = 0x20000000, Type = 0xFFFFFFF2)  returns 0x00000006 (0000ms, 0847ms total)
T1BF4 001:039 JLINK_Go() -- CPU_WriteMem(4 bytes @ 0xE0002008) -- CPU_WriteMem(4 bytes @ 0xE000200C) -- CPU_WriteMem(4 bytes @ 0xE0002010) -- CPU_WriteMem(4 bytes @ 0xE0002014) (0006ms, 0847ms total)
T1BF4 001:045 JLINK_IsHalted() -- CPU_ReadMem(2 bytes @ 0x20000000)  returns TRUE (0006ms, 0853ms total)
T1BF4 001:051 JLINK_ReadReg(R15)  returns 0x20000000 (0000ms, 0853ms total)
T1BF4 001:051 JLINK_ClrBPEx(BPHandle = 0x00000006)  returns 0x00 (0000ms, 0853ms total)
T1BF4 001:051 JLINK_ReadReg(R0)  returns 0x00000001 (0000ms, 0853ms total)
T1BF4 001:051 JLINK_WriteReg(R0, 0x08000800)  returns 0x00 (0000ms, 0853ms total)
T1BF4 001:051 JLINK_WriteReg(R1, 0x00000400)  returns 0x00 (0000ms, 0853ms total)
T1BF4 001:051 JLINK_WriteReg(R2, 0x000000FF)  returns 0x00 (0000ms, 0853ms total)
T1BF4 001:051 JLINK_WriteReg(R3, 0x00000000)  returns 0x00 (0000ms, 0853ms total)
T1BF4 001:051 JLINK_WriteReg(R4, 0x00000000)  returns 0x00 (0000ms, 0853ms total)
T1BF4 001:051 JLINK_WriteReg(R5, 0x00000000)  returns 0x00 (0000ms, 0853ms total)
T1BF4 001:051 JLINK_WriteReg(R6, 0x00000000)  returns 0x00 (0000ms, 0853ms total)
T1BF4 001:051 JLINK_WriteReg(R7, 0x00000000)  returns 0x00 (0000ms, 0853ms total)
T1BF4 001:051 JLINK_WriteReg(R8, 0x00000000)  returns 0x00 (0000ms, 0853ms total)
T1BF4 001:051 JLINK_WriteReg(R9, 0x2000016C)  returns 0x00 (0000ms, 0853ms total)
T1BF4 001:051 JLINK_WriteReg(R10, 0x00000000)  returns 0x00 (0000ms, 0853ms total)
T1BF4 001:051 JLINK_WriteReg(R11, 0x00000000)  returns 0x00 (0000ms, 0853ms total)
T1BF4 001:051 JLINK_WriteReg(R12, 0x00000000)  returns 0x00 (0000ms, 0853ms total)
T1BF4 001:051 JLINK_WriteReg(R13, 0x20000800)  returns 0x00 (0000ms, 0853ms total)
T1BF4 001:051 JLINK_WriteReg(R14, 0x20000001)  returns 0x00 (0000ms, 0853ms total)
T1BF4 001:051 JLINK_WriteReg(R15, 0x200000B8)  returns 0x00 (0000ms, 0853ms total)
T1BF4 001:051 JLINK_WriteReg(XPSR, 0x01000000)  returns 0x00 (0000ms, 0853ms total)
T1BF4 001:051 JLINK_WriteReg(MSP, 0x20000800)  returns 0x00 (0000ms, 0853ms total)
T1BF4 001:051 JLINK_WriteReg(PSP, 0x20000800)  returns 0x00 (0000ms, 0853ms total)
T1BF4 001:051 JLINK_WriteReg(CFBP, 0x00000000)  returns 0x00 (0000ms, 0853ms total)
T1BF4 001:051 JLINK_SetBPEx(Addr = 0x20000000, Type = 0xFFFFFFF2)  returns 0x00000007 (0000ms, 0853ms total)
T1BF4 001:051 JLINK_Go() -- CPU_WriteMem(4 bytes @ 0xE0002008) -- CPU_WriteMem(4 bytes @ 0xE000200C) -- CPU_WriteMem(4 bytes @ 0xE0002010) -- CPU_WriteMem(4 bytes @ 0xE0002014) (0007ms, 0853ms total)
T1BF4 001:058 JLINK_IsHalted()  returns FALSE (0001ms, 0860ms total)
T1BF4 001:110 JLINK_IsHalted() -- CPU_ReadMem(2 bytes @ 0x20000000)  returns TRUE (0005ms, 0860ms total)
T1BF4 001:115 JLINK_ReadReg(R15)  returns 0x20000000 (0000ms, 0860ms total)
T1BF4 001:115 JLINK_ClrBPEx(BPHandle = 0x00000007)  returns 0x00 (0000ms, 0860ms total)
T1BF4 001:115 JLINK_ReadReg(R0)  returns 0x00000000 (0000ms, 0860ms total)
T1BF4 001:115 JLINK_WriteReg(R0, 0x08000C00)  returns 0x00 (0000ms, 0860ms total)
T1BF4 001:115 JLINK_WriteReg(R1, 0x00000400)  returns 0x00 (0000ms, 0860ms total)
T1BF4 001:115 JLINK_WriteReg(R2, 0x000000FF)  returns 0x00 (0000ms, 0860ms total)
T1BF4 001:115 JLINK_WriteReg(R3, 0x00000000)  returns 0x00 (0000ms, 0860ms total)
T1BF4 001:115 JLINK_WriteReg(R4, 0x00000000)  returns 0x00 (0000ms, 0860ms total)
T1BF4 001:115 JLINK_WriteReg(R5, 0x00000000)  returns 0x00 (0000ms, 0860ms total)
T1BF4 001:115 JLINK_WriteReg(R6, 0x00000000)  returns 0x00 (0000ms, 0860ms total)
T1BF4 001:115 JLINK_WriteReg(R7, 0x00000000)  returns 0x00 (0001ms, 0860ms total)
T1BF4 001:116 JLINK_WriteReg(R8, 0x00000000)  returns 0x00 (0000ms, 0861ms total)
T1BF4 001:116 JLINK_WriteReg(R9, 0x2000016C)  returns 0x00 (0000ms, 0861ms total)
T1BF4 001:116 JLINK_WriteReg(R10, 0x00000000)  returns 0x00 (0000ms, 0861ms total)
T1BF4 001:116 JLINK_WriteReg(R11, 0x00000000)  returns 0x00 (0000ms, 0861ms total)
T1BF4 001:116 JLINK_WriteReg(R12, 0x00000000)  returns 0x00 (0000ms, 0861ms total)
T1BF4 001:116 JLINK_WriteReg(R13, 0x20000800)  returns 0x00 (0000ms, 0861ms total)
T1BF4 001:116 JLINK_WriteReg(R14, 0x20000001)  returns 0x00 (0000ms, 0861ms total)
T1BF4 001:116 JLINK_WriteReg(R15, 0x20000020)  returns 0x00 (0000ms, 0861ms total)
T1BF4 001:116 JLINK_WriteReg(XPSR, 0x01000000)  returns 0x00 (0000ms, 0861ms total)
T1BF4 001:116 JLINK_WriteReg(MSP, 0x20000800)  returns 0x00 (0000ms, 0861ms total)
T1BF4 001:116 JLINK_WriteReg(PSP, 0x20000800)  returns 0x00 (0000ms, 0861ms total)
T1BF4 001:116 JLINK_WriteReg(CFBP, 0x00000000)  returns 0x00 (0000ms, 0861ms total)
T1BF4 001:116 JLINK_SetBPEx(Addr = 0x20000000, Type = 0xFFFFFFF2)  returns 0x00000008 (0000ms, 0861ms total)
T1BF4 001:116 JLINK_Go() -- CPU_WriteMem(4 bytes @ 0xE0002008) -- CPU_WriteMem(4 bytes @ 0xE000200C) -- CPU_WriteMem(4 bytes @ 0xE0002010) -- CPU_WriteMem(4 bytes @ 0xE0002014) (0006ms, 0861ms total)
T1BF4 001:122 JLINK_IsHalted() -- CPU_ReadMem(2 bytes @ 0x20000000)  returns TRUE (0004ms, 0867ms total)
T1BF4 001:126 JLINK_ReadReg(R15)  returns 0x20000000 (0000ms, 0867ms total)
T1BF4 001:126 JLINK_ClrBPEx(BPHandle = 0x00000008)  returns 0x00 (0000ms, 0867ms total)
T1BF4 001:126 JLINK_ReadReg(R0)  returns 0x00000001 (0000ms, 0867ms total)
T1BF4 001:126 JLINK_WriteReg(R0, 0x08000C00)  returns 0x00 (0000ms, 0867ms total)
T1BF4 001:126 JLINK_WriteReg(R1, 0x00000400)  returns 0x00 (0000ms, 0867ms total)
T1BF4 001:126 JLINK_WriteReg(R2, 0x000000FF)  returns 0x00 (0000ms, 0867ms total)
T1BF4 001:126 JLINK_WriteReg(R3, 0x00000000)  returns 0x00 (0000ms, 0867ms total)
T1BF4 001:126 JLINK_WriteReg(R4, 0x00000000)  returns 0x00 (0000ms, 0867ms total)
T1BF4 001:126 JLINK_WriteReg(R5, 0x00000000)  returns 0x00 (0000ms, 0867ms total)
T1BF4 001:126 JLINK_WriteReg(R6, 0x00000000)  returns 0x00 (0000ms, 0867ms total)
T1BF4 001:126 JLINK_WriteReg(R7, 0x00000000)  returns 0x00 (0000ms, 0867ms total)
T1BF4 001:126 JLINK_WriteReg(R8, 0x00000000)  returns 0x00 (0000ms, 0867ms total)
T1BF4 001:126 JLINK_WriteReg(R9, 0x2000016C)  returns 0x00 (0000ms, 0867ms total)
T1BF4 001:126 JLINK_WriteReg(R10, 0x00000000)  returns 0x00 (0000ms, 0867ms total)
T1BF4 001:126 JLINK_WriteReg(R11, 0x00000000)  returns 0x00 (0000ms, 0867ms total)
T1BF4 001:126 JLINK_WriteReg(R12, 0x00000000)  returns 0x00 (0000ms, 0867ms total)
T1BF4 001:126 JLINK_WriteReg(R13, 0x20000800)  returns 0x00 (0000ms, 0867ms total)
T1BF4 001:126 JLINK_WriteReg(R14, 0x20000001)  returns 0x00 (0001ms, 0867ms total)
T1BF4 001:127 JLINK_WriteReg(R15, 0x200000B8)  returns 0x00 (0000ms, 0868ms total)
T1BF4 001:127 JLINK_WriteReg(XPSR, 0x01000000)  returns 0x00 (0000ms, 0868ms total)
T1BF4 001:127 JLINK_WriteReg(MSP, 0x20000800)  returns 0x00 (0000ms, 0868ms total)
T1BF4 001:127 JLINK_WriteReg(PSP, 0x20000800)  returns 0x00 (0000ms, 0868ms total)
T1BF4 001:127 JLINK_WriteReg(CFBP, 0x00000000)  returns 0x00 (0000ms, 0868ms total)
T1BF4 001:127 JLINK_SetBPEx(Addr = 0x20000000, Type = 0xFFFFFFF2)  returns 0x00000009 (0000ms, 0868ms total)
T1BF4 001:127 JLINK_Go() -- CPU_WriteMem(4 bytes @ 0xE0002008) -- CPU_WriteMem(4 bytes @ 0xE000200C) -- CPU_WriteMem(4 bytes @ 0xE0002010) -- CPU_WriteMem(4 bytes @ 0xE0002014) (0006ms, 0868ms total)
T1BF4 001:133 JLINK_IsHalted()  returns FALSE (0001ms, 0874ms total)
T1BF4 001:184 JLINK_IsHalted() -- CPU_ReadMem(2 bytes @ 0x20000000)  returns TRUE (0006ms, 0874ms total)
T1BF4 001:190 JLINK_ReadReg(R15)  returns 0x20000000 (0000ms, 0874ms total)
T1BF4 001:190 JLINK_ClrBPEx(BPHandle = 0x00000009)  returns 0x00 (0000ms, 0874ms total)
T1BF4 001:190 JLINK_ReadReg(R0)  returns 0x00000000 (0000ms, 0874ms total)
T1BF4 001:190 JLINK_WriteReg(R0, 0x08001000)  returns 0x00 (0000ms, 0874ms total)
T1BF4 001:190 JLINK_WriteReg(R1, 0x00000400)  returns 0x00 (0000ms, 0874ms total)
T1BF4 001:190 JLINK_WriteReg(R2, 0x000000FF)  returns 0x00 (0000ms, 0874ms total)
T1BF4 001:190 JLINK_WriteReg(R3, 0x00000000)  returns 0x00 (0000ms, 0874ms total)
T1BF4 001:190 JLINK_WriteReg(R4, 0x00000000)  returns 0x00 (0000ms, 0874ms total)
T1BF4 001:190 JLINK_WriteReg(R5, 0x00000000)  returns 0x00 (0000ms, 0874ms total)
T1BF4 001:190 JLINK_WriteReg(R6, 0x00000000)  returns 0x00 (0000ms, 0874ms total)
T1BF4 001:190 JLINK_WriteReg(R7, 0x00000000)  returns 0x00 (0000ms, 0874ms total)
T1BF4 001:190 JLINK_WriteReg(R8, 0x00000000)  returns 0x00 (0000ms, 0874ms total)
T1BF4 001:190 JLINK_WriteReg(R9, 0x2000016C)  returns 0x00 (0000ms, 0874ms total)
T1BF4 001:190 JLINK_WriteReg(R10, 0x00000000)  returns 0x00 (0000ms, 0874ms total)
T1BF4 001:190 JLINK_WriteReg(R11, 0x00000000)  returns 0x00 (0000ms, 0874ms total)
T1BF4 001:190 JLINK_WriteReg(R12, 0x00000000)  returns 0x00 (0000ms, 0874ms total)
T1BF4 001:190 JLINK_WriteReg(R13, 0x20000800)  returns 0x00 (0000ms, 0874ms total)
T1BF4 001:190 JLINK_WriteReg(R14, 0x20000001)  returns 0x00 (0000ms, 0874ms total)
T1BF4 001:190 JLINK_WriteReg(R15, 0x20000020)  returns 0x00 (0000ms, 0874ms total)
T1BF4 001:190 JLINK_WriteReg(XPSR, 0x01000000)  returns 0x00 (0000ms, 0874ms total)
T1BF4 001:190 JLINK_WriteReg(MSP, 0x20000800)  returns 0x00 (0000ms, 0874ms total)
T1BF4 001:190 JLINK_WriteReg(PSP, 0x20000800)  returns 0x00 (0000ms, 0874ms total)
T1BF4 001:190 JLINK_WriteReg(CFBP, 0x00000000)  returns 0x00 (0000ms, 0874ms total)
T1BF4 001:190 JLINK_SetBPEx(Addr = 0x20000000, Type = 0xFFFFFFF2)  returns 0x0000000A (0000ms, 0874ms total)
T1BF4 001:190 JLINK_Go() -- CPU_WriteMem(4 bytes @ 0xE0002008) -- CPU_WriteMem(4 bytes @ 0xE000200C) -- CPU_WriteMem(4 bytes @ 0xE0002010) -- CPU_WriteMem(4 bytes @ 0xE0002014) (0006ms, 0874ms total)
T1BF4 001:196 JLINK_IsHalted() -- CPU_ReadMem(2 bytes @ 0x20000000)  returns TRUE (0005ms, 0880ms total)
T1BF4 001:201 JLINK_ReadReg(R15)  returns 0x20000000 (0000ms, 0880ms total)
T1BF4 001:201 JLINK_ClrBPEx(BPHandle = 0x0000000A)  returns 0x00 (0000ms, 0880ms total)
T1BF4 001:201 JLINK_ReadReg(R0)  returns 0x00000001 (0000ms, 0880ms total)
T1BF4 001:201 JLINK_WriteReg(R0, 0x08001000)  returns 0x00 (0000ms, 0880ms total)
T1BF4 001:201 JLINK_WriteReg(R1, 0x00000400)  returns 0x00 (0000ms, 0880ms total)
T1BF4 001:201 JLINK_WriteReg(R2, 0x000000FF)  returns 0x00 (0000ms, 0880ms total)
T1BF4 001:201 JLINK_WriteReg(R3, 0x00000000)  returns 0x00 (0000ms, 0880ms total)
T1BF4 001:201 JLINK_WriteReg(R4, 0x00000000)  returns 0x00 (0000ms, 0880ms total)
T1BF4 001:201 JLINK_WriteReg(R5, 0x00000000)  returns 0x00 (0000ms, 0880ms total)
T1BF4 001:201 JLINK_WriteReg(R6, 0x00000000)  returns 0x00 (0000ms, 0880ms total)
T1BF4 001:201 JLINK_WriteReg(R7, 0x00000000)  returns 0x00 (0000ms, 0880ms total)
T1BF4 001:201 JLINK_WriteReg(R8, 0x00000000)  returns 0x00 (0000ms, 0880ms total)
T1BF4 001:201 JLINK_WriteReg(R9, 0x2000016C)  returns 0x00 (0000ms, 0880ms total)
T1BF4 001:201 JLINK_WriteReg(R10, 0x00000000)  returns 0x00 (0000ms, 0880ms total)
T1BF4 001:201 JLINK_WriteReg(R11, 0x00000000)  returns 0x00 (0000ms, 0880ms total)
T1BF4 001:201 JLINK_WriteReg(R12, 0x00000000)  returns 0x00 (0000ms, 0880ms total)
T1BF4 001:201 JLINK_WriteReg(R13, 0x20000800)  returns 0x00 (0000ms, 0880ms total)
T1BF4 001:201 JLINK_WriteReg(R14, 0x20000001)  returns 0x00 (0000ms, 0880ms total)
T1BF4 001:201 JLINK_WriteReg(R15, 0x200000B8)  returns 0x00 (0000ms, 0880ms total)
T1BF4 001:201 JLINK_WriteReg(XPSR, 0x01000000)  returns 0x00 (0000ms, 0880ms total)
T1BF4 001:201 JLINK_WriteReg(MSP, 0x20000800)  returns 0x00 (0000ms, 0880ms total)
T1BF4 001:201 JLINK_WriteReg(PSP, 0x20000800)  returns 0x00 (0000ms, 0880ms total)
T1BF4 001:201 JLINK_WriteReg(CFBP, 0x00000000)  returns 0x00 (0000ms, 0880ms total)
T1BF4 001:201 JLINK_SetBPEx(Addr = 0x20000000, Type = 0xFFFFFFF2)  returns 0x0000000B (0000ms, 0880ms total)
T1BF4 001:201 JLINK_Go() -- CPU_WriteMem(4 bytes @ 0xE0002008) -- CPU_WriteMem(4 bytes @ 0xE000200C) -- CPU_WriteMem(4 bytes @ 0xE0002010) -- CPU_WriteMem(4 bytes @ 0xE0002014) (0007ms, 0880ms total)
T1BF4 001:208 JLINK_IsHalted()  returns FALSE (0000ms, 0887ms total)
T1BF4 001:259 JLINK_IsHalted() -- CPU_ReadMem(2 bytes @ 0x20000000)  returns TRUE (0005ms, 0887ms total)
T1BF4 001:264 JLINK_ReadReg(R15)  returns 0x20000000 (0000ms, 0887ms total)
T1BF4 001:264 JLINK_ClrBPEx(BPHandle = 0x0000000B)  returns 0x00 (0000ms, 0887ms total)
T1BF4 001:264 JLINK_ReadReg(R0)  returns 0x00000000 (0000ms, 0887ms total)
T1BF4 001:264 JLINK_WriteReg(R0, 0x08001400)  returns 0x00 (0000ms, 0887ms total)
T1BF4 001:264 JLINK_WriteReg(R1, 0x00000400)  returns 0x00 (0000ms, 0887ms total)
T1BF4 001:264 JLINK_WriteReg(R2, 0x000000FF)  returns 0x00 (0000ms, 0887ms total)
T1BF4 001:264 JLINK_WriteReg(R3, 0x00000000)  returns 0x00 (0000ms, 0887ms total)
T1BF4 001:264 JLINK_WriteReg(R4, 0x00000000)  returns 0x00 (0000ms, 0887ms total)
T1BF4 001:264 JLINK_WriteReg(R5, 0x00000000)  returns 0x00 (0000ms, 0887ms total)
T1BF4 001:264 JLINK_WriteReg(R6, 0x00000000)  returns 0x00 (0000ms, 0887ms total)
T1BF4 001:264 JLINK_WriteReg(R7, 0x00000000)  returns 0x00 (0000ms, 0887ms total)
T1BF4 001:265 JLINK_WriteReg(R8, 0x00000000)  returns 0x00 (0000ms, 0888ms total)
T1BF4 001:265 JLINK_WriteReg(R9, 0x2000016C)  returns 0x00 (0000ms, 0888ms total)
T1BF4 001:265 JLINK_WriteReg(R10, 0x00000000)  returns 0x00 (0000ms, 0888ms total)
T1BF4 001:265 JLINK_WriteReg(R11, 0x00000000)  returns 0x00 (0000ms, 0888ms total)
T1BF4 001:265 JLINK_WriteReg(R12, 0x00000000)  returns 0x00 (0000ms, 0888ms total)
T1BF4 001:265 JLINK_WriteReg(R13, 0x20000800)  returns 0x00 (0000ms, 0888ms total)
T1BF4 001:265 JLINK_WriteReg(R14, 0x20000001)  returns 0x00 (0000ms, 0888ms total)
T1BF4 001:265 JLINK_WriteReg(R15, 0x20000020)  returns 0x00 (0000ms, 0888ms total)
T1BF4 001:265 JLINK_WriteReg(XPSR, 0x01000000)  returns 0x00 (0000ms, 0888ms total)
T1BF4 001:265 JLINK_WriteReg(MSP, 0x20000800)  returns 0x00 (0000ms, 0888ms total)
T1BF4 001:265 JLINK_WriteReg(PSP, 0x20000800)  returns 0x00 (0000ms, 0888ms total)
T1BF4 001:265 JLINK_WriteReg(CFBP, 0x00000000)  returns 0x00 (0000ms, 0888ms total)
T1BF4 001:265 JLINK_SetBPEx(Addr = 0x20000000, Type = 0xFFFFFFF2)  returns 0x0000000C (0000ms, 0888ms total)
T1BF4 001:265 JLINK_Go() -- CPU_WriteMem(4 bytes @ 0xE0002008) -- CPU_WriteMem(4 bytes @ 0xE000200C) -- CPU_WriteMem(4 bytes @ 0xE0002010) -- CPU_WriteMem(4 bytes @ 0xE0002014) (0006ms, 0888ms total)
T1BF4 001:271 JLINK_IsHalted() -- CPU_ReadMem(2 bytes @ 0x20000000)  returns TRUE (0007ms, 0894ms total)
T1BF4 001:278 JLINK_ReadReg(R15)  returns 0x20000000 (0000ms, 0894ms total)
T1BF4 001:278 JLINK_ClrBPEx(BPHandle = 0x0000000C)  returns 0x00 (0000ms, 0894ms total)
T1BF4 001:278 JLINK_ReadReg(R0)  returns 0x00000001 (0000ms, 0894ms total)
T1BF4 001:278 JLINK_WriteReg(R0, 0x08001400)  returns 0x00 (0000ms, 0894ms total)
T1BF4 001:278 JLINK_WriteReg(R1, 0x00000400)  returns 0x00 (0000ms, 0894ms total)
T1BF4 001:278 JLINK_WriteReg(R2, 0x000000FF)  returns 0x00 (0000ms, 0894ms total)
T1BF4 001:278 JLINK_WriteReg(R3, 0x00000000)  returns 0x00 (0000ms, 0894ms total)
T1BF4 001:278 JLINK_WriteReg(R4, 0x00000000)  returns 0x00 (0000ms, 0894ms total)
T1BF4 001:278 JLINK_WriteReg(R5, 0x00000000)  returns 0x00 (0000ms, 0894ms total)
T1BF4 001:278 JLINK_WriteReg(R6, 0x00000000)  returns 0x00 (0000ms, 0894ms total)
T1BF4 001:278 JLINK_WriteReg(R7, 0x00000000)  returns 0x00 (0000ms, 0894ms total)
T1BF4 001:278 JLINK_WriteReg(R8, 0x00000000)  returns 0x00 (0000ms, 0894ms total)
T1BF4 001:278 JLINK_WriteReg(R9, 0x2000016C)  returns 0x00 (0000ms, 0894ms total)
T1BF4 001:278 JLINK_WriteReg(R10, 0x00000000)  returns 0x00 (0000ms, 0894ms total)
T1BF4 001:278 JLINK_WriteReg(R11, 0x00000000)  returns 0x00 (0000ms, 0894ms total)
T1BF4 001:278 JLINK_WriteReg(R12, 0x00000000)  returns 0x00 (0000ms, 0894ms total)
T1BF4 001:278 JLINK_WriteReg(R13, 0x20000800)  returns 0x00 (0000ms, 0894ms total)
T1BF4 001:278 JLINK_WriteReg(R14, 0x20000001)  returns 0x00 (0000ms, 0894ms total)
T1BF4 001:278 JLINK_WriteReg(R15, 0x200000B8)  returns 0x00 (0000ms, 0894ms total)
T1BF4 001:278 JLINK_WriteReg(XPSR, 0x01000000)  returns 0x00 (0000ms, 0894ms total)
T1BF4 001:278 JLINK_WriteReg(MSP, 0x20000800)  returns 0x00 (0000ms, 0894ms total)
T1BF4 001:278 JLINK_WriteReg(PSP, 0x20000800)  returns 0x00 (0000ms, 0894ms total)
T1BF4 001:278 JLINK_WriteReg(CFBP, 0x00000000)  returns 0x00 (0000ms, 0894ms total)
T1BF4 001:278 JLINK_SetBPEx(Addr = 0x20000000, Type = 0xFFFFFFF2)  returns 0x0000000D (0000ms, 0894ms total)
T1BF4 001:278 JLINK_Go() -- CPU_WriteMem(4 bytes @ 0xE0002008) -- CPU_WriteMem(4 bytes @ 0xE000200C) -- CPU_WriteMem(4 bytes @ 0xE0002010) -- CPU_WriteMem(4 bytes @ 0xE0002014) (0005ms, 0894ms total)
T1BF4 001:283 JLINK_IsHalted()  returns FALSE (0001ms, 0899ms total)
T1BF4 001:335 JLINK_IsHalted() -- CPU_ReadMem(2 bytes @ 0x20000000)  returns TRUE (0004ms, 0899ms total)
T1BF4 001:339 JLINK_ReadReg(R15)  returns 0x20000000 (0000ms, 0899ms total)
T1BF4 001:339 JLINK_ClrBPEx(BPHandle = 0x0000000D)  returns 0x00 (0000ms, 0899ms total)
T1BF4 001:339 JLINK_ReadReg(R0)  returns 0x00000000 (0000ms, 0899ms total)
T1BF4 001:339 JLINK_WriteReg(R0, 0x08001800)  returns 0x00 (0000ms, 0899ms total)
T1BF4 001:339 JLINK_WriteReg(R1, 0x00000400)  returns 0x00 (0000ms, 0899ms total)
T1BF4 001:339 JLINK_WriteReg(R2, 0x000000FF)  returns 0x00 (0000ms, 0899ms total)
T1BF4 001:339 JLINK_WriteReg(R3, 0x00000000)  returns 0x00 (0002ms, 0899ms total)
T1BF4 001:341 JLINK_WriteReg(R4, 0x00000000)  returns 0x00 (0000ms, 0901ms total)
T1BF4 001:341 JLINK_WriteReg(R5, 0x00000000)  returns 0x00 (0000ms, 0901ms total)
T1BF4 001:341 JLINK_WriteReg(R6, 0x00000000)  returns 0x00 (0000ms, 0901ms total)
T1BF4 001:341 JLINK_WriteReg(R7, 0x00000000)  returns 0x00 (0000ms, 0901ms total)
T1BF4 001:341 JLINK_WriteReg(R8, 0x00000000)  returns 0x00 (0000ms, 0901ms total)
T1BF4 001:341 JLINK_WriteReg(R9, 0x2000016C)  returns 0x00 (0000ms, 0901ms total)
T1BF4 001:341 JLINK_WriteReg(R10, 0x00000000)  returns 0x00 (0000ms, 0901ms total)
T1BF4 001:341 JLINK_WriteReg(R11, 0x00000000)  returns 0x00 (0000ms, 0901ms total)
T1BF4 001:341 JLINK_WriteReg(R12, 0x00000000)  returns 0x00 (0000ms, 0901ms total)
T1BF4 001:341 JLINK_WriteReg(R13, 0x20000800)  returns 0x00 (0000ms, 0901ms total)
T1BF4 001:341 JLINK_WriteReg(R14, 0x20000001)  returns 0x00 (0000ms, 0901ms total)
T1BF4 001:341 JLINK_WriteReg(R15, 0x20000020)  returns 0x00 (0000ms, 0901ms total)
T1BF4 001:341 JLINK_WriteReg(XPSR, 0x01000000)  returns 0x00 (0000ms, 0901ms total)
T1BF4 001:341 JLINK_WriteReg(MSP, 0x20000800)  returns 0x00 (0000ms, 0901ms total)
T1BF4 001:341 JLINK_WriteReg(PSP, 0x20000800)  returns 0x00 (0000ms, 0901ms total)
T1BF4 001:341 JLINK_WriteReg(CFBP, 0x00000000)  returns 0x00 (0000ms, 0901ms total)
T1BF4 001:341 JLINK_SetBPEx(Addr = 0x20000000, Type = 0xFFFFFFF2)  returns 0x0000000E (0000ms, 0901ms total)
T1BF4 001:341 JLINK_Go() -- CPU_WriteMem(4 bytes @ 0xE0002008) -- CPU_WriteMem(4 bytes @ 0xE000200C) -- CPU_WriteMem(4 bytes @ 0xE0002010) -- CPU_WriteMem(4 bytes @ 0xE0002014) (0006ms, 0901ms total)
T1BF4 001:347 JLINK_IsHalted() -- CPU_ReadMem(2 bytes @ 0x20000000)  returns TRUE (0004ms, 0907ms total)
T1BF4 001:351 JLINK_ReadReg(R15)  returns 0x20000000 (0000ms, 0907ms total)
T1BF4 001:351 JLINK_ClrBPEx(BPHandle = 0x0000000E)  returns 0x00 (0000ms, 0907ms total)
T1BF4 001:351 JLINK_ReadReg(R0)  returns 0x00000001 (0000ms, 0907ms total)
T1BF4 001:351 JLINK_WriteReg(R0, 0x08001800)  returns 0x00 (0000ms, 0907ms total)
T1BF4 001:351 JLINK_WriteReg(R1, 0x00000400)  returns 0x00 (0000ms, 0907ms total)
T1BF4 001:351 JLINK_WriteReg(R2, 0x000000FF)  returns 0x00 (0000ms, 0907ms total)
T1BF4 001:351 JLINK_WriteReg(R3, 0x00000000)  returns 0x00 (0000ms, 0907ms total)
T1BF4 001:351 JLINK_WriteReg(R4, 0x00000000)  returns 0x00 (0000ms, 0907ms total)
T1BF4 001:351 JLINK_WriteReg(R5, 0x00000000)  returns 0x00 (0000ms, 0907ms total)
T1BF4 001:351 JLINK_WriteReg(R6, 0x00000000)  returns 0x00 (0000ms, 0907ms total)
T1BF4 001:351 JLINK_WriteReg(R7, 0x00000000)  returns 0x00 (0000ms, 0907ms total)
T1BF4 001:351 JLINK_WriteReg(R8, 0x00000000)  returns 0x00 (0000ms, 0907ms total)
T1BF4 001:351 JLINK_WriteReg(R9, 0x2000016C)  returns 0x00 (0000ms, 0907ms total)
T1BF4 001:351 JLINK_WriteReg(R10, 0x00000000)  returns 0x00 (0000ms, 0907ms total)
T1BF4 001:351 JLINK_WriteReg(R11, 0x00000000)  returns 0x00 (0000ms, 0907ms total)
T1BF4 001:351 JLINK_WriteReg(R12, 0x00000000)  returns 0x00 (0000ms, 0907ms total)
T1BF4 001:351 JLINK_WriteReg(R13, 0x20000800)  returns 0x00 (0000ms, 0907ms total)
T1BF4 001:351 JLINK_WriteReg(R14, 0x20000001)  returns 0x00 (0000ms, 0907ms total)
T1BF4 001:351 JLINK_WriteReg(R15, 0x200000B8)  returns 0x00 (0000ms, 0907ms total)
T1BF4 001:351 JLINK_WriteReg(XPSR, 0x01000000)  returns 0x00 (0000ms, 0907ms total)
T1BF4 001:351 JLINK_WriteReg(MSP, 0x20000800)  returns 0x00 (0000ms, 0907ms total)
T1BF4 001:351 JLINK_WriteReg(PSP, 0x20000800)  returns 0x00 (0000ms, 0907ms total)
T1BF4 001:351 JLINK_WriteReg(CFBP, 0x00000000)  returns 0x00 (0000ms, 0907ms total)
T1BF4 001:351 JLINK_SetBPEx(Addr = 0x20000000, Type = 0xFFFFFFF2)  returns 0x0000000F (0000ms, 0907ms total)
T1BF4 001:351 JLINK_Go() -- CPU_WriteMem(4 bytes @ 0xE0002008) -- CPU_WriteMem(4 bytes @ 0xE000200C) -- CPU_WriteMem(4 bytes @ 0xE0002010) -- CPU_WriteMem(4 bytes @ 0xE0002014) (0006ms, 0907ms total)
T1BF4 001:357 JLINK_IsHalted()  returns FALSE (0001ms, 0913ms total)
T1BF4 001:408 JLINK_IsHalted() -- CPU_ReadMem(2 bytes @ 0x20000000)  returns TRUE (0005ms, 0913ms total)
T1BF4 001:413 JLINK_ReadReg(R15)  returns 0x20000000 (0000ms, 0913ms total)
T1BF4 001:413 JLINK_ClrBPEx(BPHandle = 0x0000000F)  returns 0x00 (0000ms, 0913ms total)
T1BF4 001:413 JLINK_ReadReg(R0)  returns 0x00000000 (0000ms, 0913ms total)
T1BF4 001:414 JLINK_WriteReg(R0, 0x08001C00)  returns 0x00 (0000ms, 0913ms total)
T1BF4 001:414 JLINK_WriteReg(R1, 0x00000400)  returns 0x00 (0000ms, 0913ms total)
T1BF4 001:414 JLINK_WriteReg(R2, 0x000000FF)  returns 0x00 (0000ms, 0913ms total)
T1BF4 001:414 JLINK_WriteReg(R3, 0x00000000)  returns 0x00 (0000ms, 0913ms total)
T1BF4 001:414 JLINK_WriteReg(R4, 0x00000000)  returns 0x00 (0000ms, 0913ms total)
T1BF4 001:414 JLINK_WriteReg(R5, 0x00000000)  returns 0x00 (0000ms, 0913ms total)
T1BF4 001:414 JLINK_WriteReg(R6, 0x00000000)  returns 0x00 (0000ms, 0913ms total)
T1BF4 001:414 JLINK_WriteReg(R7, 0x00000000)  returns 0x00 (0000ms, 0913ms total)
T1BF4 001:414 JLINK_WriteReg(R8, 0x00000000)  returns 0x00 (0000ms, 0913ms total)
T1BF4 001:414 JLINK_WriteReg(R9, 0x2000016C)  returns 0x00 (0000ms, 0913ms total)
T1BF4 001:414 JLINK_WriteReg(R10, 0x00000000)  returns 0x00 (0000ms, 0913ms total)
T1BF4 001:414 JLINK_WriteReg(R11, 0x00000000)  returns 0x00 (0000ms, 0913ms total)
T1BF4 001:414 JLINK_WriteReg(R12, 0x00000000)  returns 0x00 (0000ms, 0913ms total)
T1BF4 001:414 JLINK_WriteReg(R13, 0x20000800)  returns 0x00 (0000ms, 0913ms total)
T1BF4 001:414 JLINK_WriteReg(R14, 0x20000001)  returns 0x00 (0000ms, 0913ms total)
T1BF4 001:414 JLINK_WriteReg(R15, 0x20000020)  returns 0x00 (0000ms, 0913ms total)
T1BF4 001:414 JLINK_WriteReg(XPSR, 0x01000000)  returns 0x00 (0000ms, 0913ms total)
T1BF4 001:414 JLINK_WriteReg(MSP, 0x20000800)  returns 0x00 (0000ms, 0913ms total)
T1BF4 001:414 JLINK_WriteReg(PSP, 0x20000800)  returns 0x00 (0000ms, 0913ms total)
T1BF4 001:414 JLINK_WriteReg(CFBP, 0x00000000)  returns 0x00 (0000ms, 0913ms total)
T1BF4 001:414 JLINK_SetBPEx(Addr = 0x20000000, Type = 0xFFFFFFF2)  returns 0x00000010 (0000ms, 0913ms total)
T1BF4 001:414 JLINK_Go() -- CPU_WriteMem(4 bytes @ 0xE0002008) -- CPU_WriteMem(4 bytes @ 0xE000200C) -- CPU_WriteMem(4 bytes @ 0xE0002010) -- CPU_WriteMem(4 bytes @ 0xE0002014) (0006ms, 0913ms total)
T1BF4 001:420 JLINK_IsHalted() -- CPU_ReadMem(2 bytes @ 0x20000000)  returns TRUE (0005ms, 0919ms total)
T1BF4 001:425 JLINK_ReadReg(R15)  returns 0x20000000 (0000ms, 0919ms total)
T1BF4 001:425 JLINK_ClrBPEx(BPHandle = 0x00000010)  returns 0x00 (0000ms, 0919ms total)
T1BF4 001:425 JLINK_ReadReg(R0)  returns 0x00000001 (0000ms, 0919ms total)
T1BF4 001:425 JLINK_WriteReg(R0, 0x08001C00)  returns 0x00 (0000ms, 0919ms total)
T1BF4 001:425 JLINK_WriteReg(R1, 0x00000400)  returns 0x00 (0000ms, 0919ms total)
T1BF4 001:425 JLINK_WriteReg(R2, 0x000000FF)  returns 0x00 (0000ms, 0919ms total)
T1BF4 001:425 JLINK_WriteReg(R3, 0x00000000)  returns 0x00 (0000ms, 0919ms total)
T1BF4 001:425 JLINK_WriteReg(R4, 0x00000000)  returns 0x00 (0000ms, 0919ms total)
T1BF4 001:425 JLINK_WriteReg(R5, 0x00000000)  returns 0x00 (0000ms, 0919ms total)
T1BF4 001:425 JLINK_WriteReg(R6, 0x00000000)  returns 0x00 (0000ms, 0919ms total)
T1BF4 001:425 JLINK_WriteReg(R7, 0x00000000)  returns 0x00 (0000ms, 0919ms total)
T1BF4 001:425 JLINK_WriteReg(R8, 0x00000000)  returns 0x00 (0000ms, 0919ms total)
T1BF4 001:425 JLINK_WriteReg(R9, 0x2000016C)  returns 0x00 (0000ms, 0919ms total)
T1BF4 001:425 JLINK_WriteReg(R10, 0x00000000)  returns 0x00 (0000ms, 0919ms total)
T1BF4 001:425 JLINK_WriteReg(R11, 0x00000000)  returns 0x00 (0000ms, 0919ms total)
T1BF4 001:425 JLINK_WriteReg(R12, 0x00000000)  returns 0x00 (0000ms, 0919ms total)
T1BF4 001:425 JLINK_WriteReg(R13, 0x20000800)  returns 0x00 (0000ms, 0919ms total)
T1BF4 001:425 JLINK_WriteReg(R14, 0x20000001)  returns 0x00 (0000ms, 0919ms total)
T1BF4 001:425 JLINK_WriteReg(R15, 0x200000B8)  returns 0x00 (0000ms, 0919ms total)
T1BF4 001:425 JLINK_WriteReg(XPSR, 0x01000000)  returns 0x00 (0000ms, 0919ms total)
T1BF4 001:425 JLINK_WriteReg(MSP, 0x20000800)  returns 0x00 (0000ms, 0919ms total)
T1BF4 001:425 JLINK_WriteReg(PSP, 0x20000800)  returns 0x00 (0000ms, 0919ms total)
T1BF4 001:425 JLINK_WriteReg(CFBP, 0x00000000)  returns 0x00 (0000ms, 0919ms total)
T1BF4 001:425 JLINK_SetBPEx(Addr = 0x20000000, Type = 0xFFFFFFF2)  returns 0x00000011 (0000ms, 0919ms total)
T1BF4 001:425 JLINK_Go() -- CPU_WriteMem(4 bytes @ 0xE0002008) -- CPU_WriteMem(4 bytes @ 0xE000200C) -- CPU_WriteMem(4 bytes @ 0xE0002010) -- CPU_WriteMem(4 bytes @ 0xE0002014) (0006ms, 0919ms total)
T1BF4 001:431 JLINK_IsHalted()  returns FALSE (0001ms, 0925ms total)
T1BF4 001:482 JLINK_IsHalted() -- CPU_ReadMem(2 bytes @ 0x20000000)  returns TRUE (0006ms, 0925ms total)
T1BF4 001:488 JLINK_ReadReg(R15)  returns 0x20000000 (0000ms, 0925ms total)
T1BF4 001:488 JLINK_ClrBPEx(BPHandle = 0x00000011)  returns 0x00 (0000ms, 0925ms total)
T1BF4 001:488 JLINK_ReadReg(R0)  returns 0x00000000 (0000ms, 0925ms total)
T1BF4 001:488 JLINK_WriteReg(R0, 0x08002000)  returns 0x00 (0000ms, 0925ms total)
T1BF4 001:488 JLINK_WriteReg(R1, 0x00000400)  returns 0x00 (0000ms, 0925ms total)
T1BF4 001:488 JLINK_WriteReg(R2, 0x000000FF)  returns 0x00 (0000ms, 0925ms total)
T1BF4 001:488 JLINK_WriteReg(R3, 0x00000000)  returns 0x00 (0000ms, 0925ms total)
T1BF4 001:488 JLINK_WriteReg(R4, 0x00000000)  returns 0x00 (0000ms, 0925ms total)
T1BF4 001:488 JLINK_WriteReg(R5, 0x00000000)  returns 0x00 (0000ms, 0925ms total)
T1BF4 001:488 JLINK_WriteReg(R6, 0x00000000)  returns 0x00 (0000ms, 0925ms total)
T1BF4 001:488 JLINK_WriteReg(R7, 0x00000000)  returns 0x00 (0000ms, 0925ms total)
T1BF4 001:488 JLINK_WriteReg(R8, 0x00000000)  returns 0x00 (0000ms, 0925ms total)
T1BF4 001:488 JLINK_WriteReg(R9, 0x2000016C)  returns 0x00 (0000ms, 0925ms total)
T1BF4 001:488 JLINK_WriteReg(R10, 0x00000000)  returns 0x00 (0000ms, 0925ms total)
T1BF4 001:488 JLINK_WriteReg(R11, 0x00000000)  returns 0x00 (0000ms, 0925ms total)
T1BF4 001:488 JLINK_WriteReg(R12, 0x00000000)  returns 0x00 (0000ms, 0925ms total)
T1BF4 001:488 JLINK_WriteReg(R13, 0x20000800)  returns 0x00 (0000ms, 0925ms total)
T1BF4 001:488 JLINK_WriteReg(R14, 0x20000001)  returns 0x00 (0000ms, 0925ms total)
T1BF4 001:488 JLINK_WriteReg(R15, 0x20000020)  returns 0x00 (0000ms, 0925ms total)
T1BF4 001:488 JLINK_WriteReg(XPSR, 0x01000000)  returns 0x00 (0000ms, 0925ms total)
T1BF4 001:488 JLINK_WriteReg(MSP, 0x20000800)  returns 0x00 (0000ms, 0925ms total)
T1BF4 001:488 JLINK_WriteReg(PSP, 0x20000800)  returns 0x00 (0000ms, 0925ms total)
T1BF4 001:488 JLINK_WriteReg(CFBP, 0x00000000)  returns 0x00 (0000ms, 0925ms total)
T1BF4 001:488 JLINK_SetBPEx(Addr = 0x20000000, Type = 0xFFFFFFF2)  returns 0x00000012 (0000ms, 0925ms total)
T1BF4 001:488 JLINK_Go() -- CPU_WriteMem(4 bytes @ 0xE0002008) -- CPU_WriteMem(4 bytes @ 0xE000200C) -- CPU_WriteMem(4 bytes @ 0xE0002010) -- CPU_WriteMem(4 bytes @ 0xE0002014) (0007ms, 0925ms total)
T1BF4 001:495 JLINK_IsHalted() -- CPU_ReadMem(2 bytes @ 0x20000000)  returns TRUE (0005ms, 0932ms total)
T1BF4 001:500 JLINK_ReadReg(R15)  returns 0x20000000 (0000ms, 0932ms total)
T1BF4 001:500 JLINK_ClrBPEx(BPHandle = 0x00000012)  returns 0x00 (0000ms, 0932ms total)
T1BF4 001:500 JLINK_ReadReg(R0)  returns 0x00000001 (0000ms, 0932ms total)
T1BF4 001:500 JLINK_WriteReg(R0, 0x08002000)  returns 0x00 (0000ms, 0932ms total)
T1BF4 001:500 JLINK_WriteReg(R1, 0x00000400)  returns 0x00 (0000ms, 0932ms total)
T1BF4 001:500 JLINK_WriteReg(R2, 0x000000FF)  returns 0x00 (0000ms, 0932ms total)
T1BF4 001:500 JLINK_WriteReg(R3, 0x00000000)  returns 0x00 (0000ms, 0932ms total)
T1BF4 001:500 JLINK_WriteReg(R4, 0x00000000)  returns 0x00 (0000ms, 0932ms total)
T1BF4 001:500 JLINK_WriteReg(R5, 0x00000000)  returns 0x00 (0000ms, 0932ms total)
T1BF4 001:500 JLINK_WriteReg(R6, 0x00000000)  returns 0x00 (0000ms, 0932ms total)
T1BF4 001:500 JLINK_WriteReg(R7, 0x00000000)  returns 0x00 (0000ms, 0932ms total)
T1BF4 001:500 JLINK_WriteReg(R8, 0x00000000)  returns 0x00 (0000ms, 0932ms total)
T1BF4 001:500 JLINK_WriteReg(R9, 0x2000016C)  returns 0x00 (0000ms, 0932ms total)
T1BF4 001:500 JLINK_WriteReg(R10, 0x00000000)  returns 0x00 (0000ms, 0932ms total)
T1BF4 001:500 JLINK_WriteReg(R11, 0x00000000)  returns 0x00 (0000ms, 0932ms total)
T1BF4 001:500 JLINK_WriteReg(R12, 0x00000000)  returns 0x00 (0000ms, 0932ms total)
T1BF4 001:500 JLINK_WriteReg(R13, 0x20000800)  returns 0x00 (0000ms, 0932ms total)
T1BF4 001:500 JLINK_WriteReg(R14, 0x20000001)  returns 0x00 (0000ms, 0932ms total)
T1BF4 001:500 JLINK_WriteReg(R15, 0x200000B8)  returns 0x00 (0000ms, 0932ms total)
T1BF4 001:500 JLINK_WriteReg(XPSR, 0x01000000)  returns 0x00 (0000ms, 0932ms total)
T1BF4 001:500 JLINK_WriteReg(MSP, 0x20000800)  returns 0x00 (0000ms, 0932ms total)
T1BF4 001:500 JLINK_WriteReg(PSP, 0x20000800)  returns 0x00 (0000ms, 0932ms total)
T1BF4 001:500 JLINK_WriteReg(CFBP, 0x00000000)  returns 0x00 (0000ms, 0932ms total)
T1BF4 001:500 JLINK_SetBPEx(Addr = 0x20000000, Type = 0xFFFFFFF2)  returns 0x00000013 (0000ms, 0932ms total)
T1BF4 001:500 JLINK_Go() -- CPU_WriteMem(4 bytes @ 0xE0002008) -- CPU_WriteMem(4 bytes @ 0xE000200C) -- CPU_WriteMem(4 bytes @ 0xE0002010) -- CPU_WriteMem(4 bytes @ 0xE0002014) (0006ms, 0932ms total)
T1BF4 001:506 JLINK_IsHalted()  returns FALSE (0000ms, 0938ms total)
T1BF4 001:557 JLINK_IsHalted() -- CPU_ReadMem(2 bytes @ 0x20000000)  returns TRUE (0005ms, 0938ms total)
T1BF4 001:562 JLINK_ReadReg(R15)  returns 0x20000000 (0000ms, 0938ms total)
T1BF4 001:562 JLINK_ClrBPEx(BPHandle = 0x00000013)  returns 0x00 (0000ms, 0938ms total)
T1BF4 001:562 JLINK_ReadReg(R0)  returns 0x00000000 (0000ms, 0938ms total)
